T3D24 4430:991 SEGGER J-Link V6.30h Log File (0000ms, 5442ms total)
T3D24 4430:991 DLL Compiled: Mar 16 2018 18:02:51 (0000ms, 5442ms total)
T3D24 4430:991 Logging started @ 2019-12-26 09:37 (0000ms, 5442ms total)
T3D24 4430:991 JLINK_SetWarnOutHandler(...) (0000ms, 5442ms total)
T3D24 4430:991 JLINK_OpenEx(...)
Firmware: J-Link V9 compiled Oct 25 2018 11:46:07
Hardware: V9.40
S/N: 59425868
Feature(s): RDI, GDB, FlashDL, FlashBP, JFlash, RDDI
TELNET listener socket opened on port 19021WEBSRV 
Starting webserver (0137ms, 5579ms total)
T3D24 4430:991 WEBSRV Webserver running on local port 19080 (0138ms, 5580ms total)
T3D24 4430:991   returns O.K. (0138ms, 5580ms total)
T3D24 4431:129 JLINK_GetEmuCaps()  returns 0xB9FF7BBF (0000ms, 5580ms total)
T3D24 4431:129 JLINK_TIF_GetAvailable(...) (0000ms, 5580ms total)
T3D24 4431:129 JLINK_SetErrorOutHandler(...) (0000ms, 5580ms total)
T3D24 4431:129 JLINK_ExecCommand("ProjectFile = "F:\F107VC_LiteOS_Keil\MDK-ARM\JLinkSettings.ini"", ...).   returns 0x00 (0003ms, 5583ms total)
T3D24 4431:132 JLINK_ExecCommand("Device = STM32F107VC", ...). Device "STM32F107VC" selected.  returns 0x00 (0003ms, 5586ms total)
T3D24 4431:135 JLINK_ExecCommand("DisableConnectionTimeout", ...).   returns 0x01 (0000ms, 5586ms total)
T3D24 4431:135 JLINK_GetHardwareVersion()  returns 0x16F30 (0000ms, 5586ms total)
T3D24 4431:135 JLINK_GetDLLVersion()  returns 63008 (0000ms, 5586ms total)
T3D24 4431:135 JLINK_GetFirmwareString(...) (0000ms, 5586ms total)
T3D24 4431:135 JLINK_GetDLLVersion()  returns 63008 (0000ms, 5586ms total)
T3D24 4431:135 JLINK_GetCompileDateTime() (0000ms, 5586ms total)
T3D24 4431:135 JLINK_GetFirmwareString(...) (0000ms, 5586ms total)
T3D24 4431:135 JLINK_GetHardwareVersion()  returns 0x16F30 (0000ms, 5586ms total)
T3D24 4431:135 JLINK_TIF_Select(JLINKARM_TIF_SWD)  returns 0x00 (0000ms, 5586ms total)
T3D24 4431:135 JLINK_SetSpeed(5000) (0001ms, 5587ms total)
T3D24 4431:136 JLINK_GetId() >0x10B TIF>Found SW-DP with ID 0x1BA01477 >0x0D TIF> >0x28 TIF> >0x0D TIF> >0x28 TIF> >0x0D TIF> >0x28 TIF> >0x0D TIF> >0x28 TIF> >0x0D TIF> >0x21 TIF> >0x0D TIF> >0x28 TIF> >0x0D TIF> >0x28 TIF> >0x0D TIF> >0x28 TIF> >0x0D TIF> >0x21 TIF> >0x0D TIF> >0x21 TIF> >0x0D TIF> >0x28 TIF> >0x0D TIF> >0x21 TIF> >0x0D TIF> >0x21 TIF> >0x0D TIF> >0x28 TIF> >0x0D TIF> >0x21 TIF> >0x0D TIF> >0x21 TIF> >0x0D TIF> >0x28 TIF> >0x0D TIF> >0x21 TIF> >0x0D TIF> >0x21 TIF> >0x0D TIF>
 >0x28 TIF> >0x0D TIF> >0x21 TIF> >0x0D TIF> >0x21 TIF> >0x0D TIF> >0x28 TIF> >0x0D TIF> >0x21 TIF> >0x0D TIF> >0x21 TIF> >0x0D TIF> >0x28 TIF> >0x0D TIF> >0x21 TIF> >0x0D TIF> >0x21 TIF> >0x10B TIF>Found SW-DP with ID 0x1BA01477 >0x0D TIF> >0x28 TIF> >0x0D TIF> >0x28 TIF> >0x0D TIF> >0x28 TIF> >0x0D TIF> >0x28 TIF> >0x0D TIF> >0x21 TIF> >0x0D TIF> >0x28 TIF>Scanning AP map to find all available APs >0x0D TIF> >0x28 TIF> >0x0D TIF> >0x21 TIF> >0x0D TIF> >0x21 TIF> >0x0D TIF> >0x28 TIF> >0x0D TIF>
 >0x21 TIF> >0x0D TIF> >0x21 TIF>AP[1]: Stopped AP scan as end of AP map has been reachedAP[0]: AHB-AP (IDR: 0x14770011)Iterating through AP map to find AHB-AP to use >0x42 TIF> >0x28 TIF> >0x0D TIF> >0x28 TIF> >0x0D TIF> >0x21 TIF> >0x0D TIF> >0x21 TIF> >0x42 TIF> >0x28 TIF> >0x0D TIF> >0x28 TIF> >0x0D TIF> >0x28 TIF> >0x0D TIF> >0x21 TIF> >0x0D TIF> >0x21 TIF>AP[0]: Core foundAP[0]: AHB-AP ROM base: 0xE00FF000 >0x0D TIF> >0x28 TIF> >0x0D TIF> >0x28 TIF> >0x0D TIF> >0x28 TIF> >0x0D TIF> >0x21 TIF>
 >0x0D TIF> >0x21 TIF>CPUID register: 0x411FC231. Implementer code: 0x41 (ARM)Found Cortex-M3 r1p1, Little endian. -- CPU_ReadMem(4 bytes @ 0xE000EDF0) -- CPU_WriteMem(4 bytes @ 0xE000EDF0) -- CPU_ReadMem(4 bytes @ 0xE0002000)FPUnit: 6 code (BP) slots and 2 literal slots -- CPU_ReadMem(4 bytes @ 0xE000EDFC) -- CPU_WriteMem(4 bytes @ 0xE000EDFC) -- CPU_ReadMem(4 bytes @ 0xE0001000) -- CPU_WriteMem(4 bytes @ 0xE0001000) -- CPU_ReadMem(4 bytes @ 0xE000ED88) -- CPU_WriteMem(4 bytes @ 0xE000ED88)
 -- CPU_ReadMem(4 bytes @ 0xE000ED88) -- CPU_WriteMem(4 bytes @ 0xE000ED88)CoreSight components:ROMTbl[0] @ E00FF000 -- CPU_ReadMem(16 bytes @ 0xE00FF000) -- CPU_ReadMem(16 bytes @ 0xE000EFF0) -- CPU_ReadMem(16 bytes @ 0xE000EFE0)ROMTbl[0][0]: E000E000, CID: B105E00D, PID: 001BB000 SCS -- CPU_ReadMem(16 bytes @ 0xE0001FF0) -- CPU_ReadMem(16 bytes @ 0xE0001FE0)ROMTbl[0][1]: E0001000, CID: B105E00D, PID: 001BB002 DWT -- CPU_ReadMem(16 bytes @ 0xE0002FF0) -- CPU_ReadMem(16 bytes @ 0xE0002FE0)
ROMTbl[0][2]: E0002000, CID: B105E00D, PID: 000BB003 FPB -- CPU_ReadMem(16 bytes @ 0xE0000FF0) -- CPU_ReadMem(16 bytes @ 0xE0000FE0)ROMTbl[0][3]: E0000000, CID: B105E00D, PID: 001BB001 ITM -- CPU_ReadMem(16 bytes @ 0xE00FF010) -- CPU_ReadMem(16 bytes @ 0xE0040FF0) -- CPU_ReadMem(16 bytes @ 0xE0040FE0)ROMTbl[0][4]: E0040000, CID: B105900D, PID: 001BB923 TPIU-Lite -- CPU_ReadMem(16 bytes @ 0xE0041FF0) -- CPU_ReadMem(16 bytes @ 0xE0041FE0)ROMTbl[0][5]: E0041000, CID: B105900D, PID: 101BB924 ETM-M3
 >0x0D TIF> >0x21 TIF>  returns 0x1BA01477 (0129ms, 5716ms total)
T3D24 4431:265 JLINK_GetDLLVersion()  returns 63008 (0000ms, 5716ms total)
T3D24 4431:265 JLINK_CORE_GetFound()  returns 0x30000FF (0000ms, 5716ms total)
T3D24 4431:265 JLINK_GetDebugInfo(0x100 = JLINKARM_ROM_TABLE_ADDR_INDEX) -- Value=0xE00FF000  returns 0x00 (0000ms, 5716ms total)
T3D24 4431:265 JLINK_GetDebugInfo(0x100 = JLINKARM_ROM_TABLE_ADDR_INDEX) -- Value=0xE00FF000  returns 0x00 (0000ms, 5716ms total)
T3D24 4431:265 JLINK_GetDebugInfo(0x101 = JLINKARM_DEBUG_INFO_ETM_ADDR_INDEX) -- Value=0xE0041000  returns 0x00 (0000ms, 5716ms total)
T3D24 4431:265 JLINK_ReadMemEx(0xE0041FD0, 0x0020 Bytes, ..., Flags = 0x02000004) -- CPU_ReadMem(32 bytes @ 0xE0041FD0) - Data: 04 00 00 00 00 00 00 00 00 00 00 00 00 00 00 00 ...  returns 0x20 (0000ms, 5716ms total)
T3D24 4431:265 JLINK_GetDebugInfo(0x102 = JLINKARM_DEBUG_INFO_MTB_ADDR_INDEX) -- Value=0x00000000  returns 0x00 (0000ms, 5716ms total)
T3D24 4431:265 JLINK_GetDebugInfo(0x103 = JLINKARM_DEBUG_INFO_TPIU_ADDR_INDEX) -- Value=0xE0040000  returns 0x00 (0000ms, 5716ms total)
T3D24 4431:265 JLINK_GetDebugInfo(0x104 = JLINKARM_DEBUG_INFO_ITM_ADDR_INDEX) -- Value=0xE0000000  returns 0x00 (0000ms, 5716ms total)
T3D24 4431:265 JLINK_GetDebugInfo(0x105 = JLINKARM_DEBUG_INFO_DWT_ADDR_INDEX) -- Value=0xE0001000  returns 0x00 (0000ms, 5716ms total)
T3D24 4431:265 JLINK_GetDebugInfo(0x106 = JLINKARM_DEBUG_INFO_FPB_ADDR_INDEX) -- Value=0xE0002000  returns 0x00 (0000ms, 5716ms total)
T3D24 4431:265 JLINK_GetDebugInfo(0x107 = JLINKARM_DEBUG_INFO_NVIC_ADDR_INDEX) -- Value=0xE000E000  returns 0x00 (0000ms, 5716ms total)
T3D24 4431:265 JLINK_GetDebugInfo(0x10C = JLINKARM_DEBUG_INFO_DBG_ADDR_INDEX) -- Value=0xE000EDF0  returns 0x00 (0000ms, 5716ms total)
T3D24 4431:265 JLINK_GetDebugInfo(0x01 = Unknown) -- Value=0x00000000  returns 0x00 (0000ms, 5716ms total)
T3D24 4431:265 JLINK_ReadMemU32(0xE000ED00, 0x0001 Items, ...) -- CPU_ReadMem(4 bytes @ 0xE000ED00) - Data: 31 C2 1F 41  returns 0x01 (0001ms, 5717ms total)
T3D24 4431:266 JLINK_GetDebugInfo(0x10F = JLINKARM_DEBUG_INFO_HAS_CORTEX_M_SECURITY_EXT_INDEX) -- Value=0x00000000  returns 0x00 (0000ms, 5717ms total)
T3D24 4431:266 JLINK_SetResetType(JLINKARM_CM3_RESET_TYPE_NORMAL)  returns JLINKARM_CM3_RESET_TYPE_NORMAL (0000ms, 5717ms total)
T3D24 4431:266 JLINK_Reset() -- CPU is running -- CPU_WriteMem(4 bytes @ 0xE000EDF0) -- CPU is running -- CPU_WriteMem(4 bytes @ 0xE000EDFC)Reset: Halt core after reset via DEMCR.VC_CORERESET. >0x35 TIF>Reset: Reset device via AIRCR.SYSRESETREQ. -- CPU is running -- CPU_WriteMem(4 bytes @ 0xE000ED0C) >0x0D TIF> >0x28 TIF> -- CPU_ReadMem(4 bytes @ 0xE000EDF0) -- CPU_ReadMem(4 bytes @ 0xE000EDF0) -- CPU is running -- CPU_WriteMem(4 bytes @ 0xE000EDF0) -- CPU is running -- CPU_WriteMem(4 bytes @ 0xE000EDFC)
 -- CPU_ReadMem(4 bytes @ 0xE000EDF0) -- CPU_WriteMem(4 bytes @ 0xE0002000) -- CPU_ReadMem(4 bytes @ 0xE000EDFC) -- CPU_ReadMem(4 bytes @ 0xE0001000) (0065ms, 5782ms total)
T3D24 4431:331 JLINK_ReadReg(R15 (PC))  returns 0x08000164 (0000ms, 5782ms total)
T3D24 4431:331 JLINK_ReadReg(XPSR)  returns 0x01000000 (0000ms, 5782ms total)
T3D24 4431:331 JLINK_Halt()  returns 0x00 (0000ms, 5782ms total)
T3D24 4431:331 JLINK_ReadMemU32(0xE000EDF0, 0x0001 Items, ...) -- CPU_ReadMem(4 bytes @ 0xE000EDF0) - Data: 03 00 03 00  returns 0x01 (0000ms, 5782ms total)
T3D24 4431:331 JLINK_WriteU32(0xE000EDF0, 0xA05F0003) -- CPU_WriteMem(4 bytes @ 0xE000EDF0)  returns 0x00 (0001ms, 5783ms total)
T3D24 4431:332 JLINK_WriteU32(0xE000EDFC, 0x01000000) -- CPU_WriteMem(4 bytes @ 0xE000EDFC)  returns 0x00 (0000ms, 5783ms total)
T3D24 4431:332 JLINK_GetHWStatus(...)  returns 0x00 (0000ms, 5783ms total)
T3D24 4431:332 JLINK_GetNumBPUnits(Type = 0xFFFFFF00)  returns 0x06 (0000ms, 5783ms total)
T3D24 4431:332 JLINK_GetNumBPUnits(Type = 0xF0)  returns 0x2000 (0000ms, 5783ms total)
T3D24 4431:332 JLINK_GetNumWPUnits()  returns 0x04 (0000ms, 5783ms total)
T3D24 4431:332 JLINK_GetSpeed()  returns 0xFA0 (0000ms, 5783ms total)
T3D24 4431:332 JLINK_ReadMemU32(0xE000E004, 0x0001 Items, ...) -- CPU_ReadMem(4 bytes @ 0xE000E004) - Data: 02 00 00 00  returns 0x01 (0001ms, 5784ms total)
T3D24 4431:333 JLINK_ReadMemU32(0xE000E004, 0x0001 Items, ...) -- CPU_ReadMem(4 bytes @ 0xE000E004) - Data: 02 00 00 00  returns 0x01 (0000ms, 5784ms total)
T3D24 4431:333 JLINK_WriteMemEx(0xE0001000, 0x001C Bytes, ..., Flags = 0x02000004) - Data: 01 00 00 00 00 00 00 00 00 00 00 00 00 00 00 00 ... -- CPU_WriteMem(28 bytes @ 0xE0001000)  returns 0x1C (0001ms, 5785ms total)
T3D24 4431:334 JLINK_ReadReg(R15 (PC))  returns 0x08000164 (0000ms, 5785ms total)
T3D24 4431:334 JLINK_ReadReg(XPSR)  returns 0x01000000 (0000ms, 5785ms total)
T3D24 4431:479 JLINK_SetResetType(JLINKARM_CM3_RESET_TYPE_NORMAL)  returns JLINKARM_CM3_RESET_TYPE_NORMAL (0000ms, 5785ms total)
T3D24 4431:479 JLINK_Reset() -- CPU_WriteMem(4 bytes @ 0xE000EDF0) -- CPU_WriteMem(4 bytes @ 0xE000EDFC)Reset: Halt core after reset via DEMCR.VC_CORERESET. >0x35 TIF>Reset: Reset device via AIRCR.SYSRESETREQ. -- CPU_WriteMem(4 bytes @ 0xE000ED0C) >0x0D TIF> >0x28 TIF> -- CPU_ReadMem(4 bytes @ 0xE000EDF0) -- CPU_ReadMem(4 bytes @ 0xE000EDF0) -- CPU_WriteMem(4 bytes @ 0xE000EDF0) -- CPU_WriteMem(4 bytes @ 0xE000EDFC) -- CPU_ReadMem(4 bytes @ 0xE000EDF0) -- CPU_WriteMem(4 bytes @ 0xE0002000)
 -- CPU_ReadMem(4 bytes @ 0xE000EDFC) -- CPU_ReadMem(4 bytes @ 0xE0001000) (0064ms, 5849ms total)
T3D24 4431:543 JLINK_ReadReg(R15 (PC))  returns 0x08000164 (0000ms, 5849ms total)
T3D24 4431:543 JLINK_ReadReg(XPSR)  returns 0x01000000 (0000ms, 5849ms total)
T3D24 4431:732 JLINK_ReadMemEx(0x08000164, 0x003C Bytes, ..., Flags = 0x02000000) -- CPU_ReadMem(128 bytes @ 0x08000140) -- Updating C cache (128 bytes @ 0x08000140) -- Read from C cache (60 bytes @ 0x08000164) - Data: 06 48 80 47 06 48 00 47 FE E7 FE E7 FE E7 FE E7 ...  returns 0x3C (0001ms, 5850ms total)
T3D24 4433:353 JLINK_ReadReg(R0)  returns 0x00000000 (0001ms, 5851ms total)
T3D24 4433:354 JLINK_ReadReg(R1)  returns 0x00000003 (0000ms, 5851ms total)
T3D24 4433:354 JLINK_ReadReg(R2)  returns 0x40022000 (0000ms, 5851ms total)
T3D24 4433:354 JLINK_ReadReg(R3)  returns 0x04C11DB7 (0000ms, 5851ms total)
T3D24 4433:354 JLINK_ReadReg(R4)  returns 0x00000000 (0000ms, 5851ms total)
T3D24 4433:354 JLINK_ReadReg(R5)  returns 0x00000000 (0000ms, 5851ms total)
T3D24 4433:354 JLINK_ReadReg(R6)  returns 0x00000000 (0000ms, 5851ms total)
T3D24 4433:354 JLINK_ReadReg(R7)  returns 0x00000000 (0000ms, 5851ms total)
T3D24 4433:354 JLINK_ReadReg(R8)  returns 0x00000000 (0000ms, 5851ms total)
T3D24 4433:354 JLINK_ReadReg(R9)  returns 0x20000160 (0000ms, 5851ms total)
T3D24 4433:354 JLINK_ReadReg(R10)  returns 0x00000000 (0000ms, 5851ms total)
T3D24 4433:354 JLINK_ReadReg(R11)  returns 0x00000000 (0000ms, 5851ms total)
T3D24 4433:354 JLINK_ReadReg(R12)  returns 0x00000000 (0000ms, 5851ms total)
T3D24 4433:354 JLINK_ReadReg(R13 (SP))  returns 0x2000BB58 (0000ms, 5851ms total)
T3D24 4433:354 JLINK_ReadReg(R14)  returns 0xFFFFFFFF (0000ms, 5851ms total)
T3D24 4433:354 JLINK_ReadReg(R15 (PC))  returns 0x08000164 (0000ms, 5851ms total)
T3D24 4433:354 JLINK_ReadReg(XPSR)  returns 0x01000000 (0000ms, 5851ms total)
T3D24 4433:354 JLINK_ReadReg(MSP)  returns 0x2000BB58 (0000ms, 5851ms total)
T3D24 4433:354 JLINK_ReadReg(PSP)  returns 0x20001000 (0000ms, 5851ms total)
T3D24 4433:354 JLINK_ReadReg(CFBP)  returns 0x00000000 (0000ms, 5851ms total)
T2FB0 4433:433 JLINK_ReadMemEx(0x08000164, 0x0002 Bytes, ..., Flags = 0x02000000) -- Read from C cache (2 bytes @ 0x08000164) - Data: 06 48  returns 0x02 (0000ms, 5851ms total)
T2FB0 4433:433 JLINK_SetBPEx(Addr = 0x080083DA, Type = 0xFFFFFFF2)  returns 0x00000001 (0000ms, 5851ms total)
T2FB0 4433:433 JLINK_SetBPEx(Addr = 0x08010446, Type = 0xFFFFFFF2)  returns 0x00000002 (0000ms, 5851ms total)
T2FB0 4433:433 JLINK_Go() -- CPU_WriteMem(4 bytes @ 0xE0002000) -- CPU_WriteMem(4 bytes @ 0xE0002000) -- CPU_ReadMem(4 bytes @ 0xE0001000) -- CPU_WriteMem(4 bytes @ 0xE0002008) -- CPU_WriteMem(4 bytes @ 0xE000200C) -- CPU_WriteMem(4 bytes @ 0xE0002010) -- CPU_WriteMem(4 bytes @ 0xE0002014) -- CPU_WriteMem(4 bytes @ 0xE0002018) -- CPU_WriteMem(4 bytes @ 0xE000201C) -- CPU_WriteMem(4 bytes @ 0xE0001004) (0003ms, 5854ms total)
T2FB0 4433:537 JLINK_IsHalted()  returns TRUE (0002ms, 5856ms total)
T2FB0 4433:539 JLINK_Halt()  returns 0x00 (0000ms, 5854ms total)
T2FB0 4433:539 JLINK_IsHalted()  returns TRUE (0000ms, 5854ms total)
T2FB0 4433:539 JLINK_IsHalted()  returns TRUE (0000ms, 5854ms total)
T2FB0 4433:539 JLINK_IsHalted()  returns TRUE (0000ms, 5854ms total)
T2FB0 4433:539 JLINK_ReadReg(R15 (PC))  returns 0x080083DA (0000ms, 5854ms total)
T2FB0 4433:539 JLINK_ReadReg(XPSR)  returns 0x61000000 (0000ms, 5854ms total)
T2FB0 4433:539 JLINK_ClrBPEx(BPHandle = 0x00000001)  returns 0x00 (0000ms, 5854ms total)
T2FB0 4433:539 JLINK_ClrBPEx(BPHandle = 0x00000002)  returns 0x00 (0000ms, 5854ms total)
T2FB0 4433:539 JLINK_ReadMemU32(0xE000ED30, 0x0001 Items, ...) -- CPU_ReadMem(4 bytes @ 0xE000ED30) - Data: 02 00 00 00  returns 0x01 (0001ms, 5855ms total)
T2FB0 4433:540 JLINK_ReadMemU32(0xE0001028, 0x0001 Items, ...) -- CPU_ReadMem(4 bytes @ 0xE0001028) - Data: 00 00 00 00  returns 0x01 (0000ms, 5855ms total)
T2FB0 4433:540 JLINK_ReadMemU32(0xE0001038, 0x0001 Items, ...) -- CPU_ReadMem(4 bytes @ 0xE0001038) - Data: 00 02 00 00  returns 0x01 (0000ms, 5855ms total)
T2FB0 4433:540 JLINK_ReadMemU32(0xE0001048, 0x0001 Items, ...) -- CPU_ReadMem(4 bytes @ 0xE0001048) - Data: 00 00 00 00  returns 0x01 (0001ms, 5856ms total)
T2FB0 4433:541 JLINK_ReadMemU32(0xE0001058, 0x0001 Items, ...) -- CPU_ReadMem(4 bytes @ 0xE0001058) - Data: 00 00 00 00  returns 0x01 (0000ms, 5856ms total)
T2FB0 4433:541 JLINK_ReadReg(R0)  returns 0x080083DB (0000ms, 5856ms total)
T2FB0 4433:541 JLINK_ReadReg(R1)  returns 0x2000BB58 (0000ms, 5856ms total)
T2FB0 4433:541 JLINK_ReadReg(R2)  returns 0x00000000 (0000ms, 5856ms total)
T2FB0 4433:541 JLINK_ReadReg(R3)  returns 0x08003859 (0000ms, 5856ms total)
T2FB0 4433:541 JLINK_ReadReg(R4)  returns 0x08010FAC (0000ms, 5856ms total)
T2FB0 4433:541 JLINK_ReadReg(R5)  returns 0x08010FAC (0000ms, 5856ms total)
T2FB0 4433:541 JLINK_ReadReg(R6)  returns 0x00000000 (0000ms, 5856ms total)
T2FB0 4433:541 JLINK_ReadReg(R7)  returns 0x00000000 (0000ms, 5856ms total)
T2FB0 4433:541 JLINK_ReadReg(R8)  returns 0x00000000 (0000ms, 5856ms total)
T2FB0 4433:541 JLINK_ReadReg(R9)  returns 0x20000160 (0000ms, 5856ms total)
T2FB0 4433:541 JLINK_ReadReg(R10)  returns 0x00000000 (0000ms, 5856ms total)
T2FB0 4433:541 JLINK_ReadReg(R11)  returns 0x00000000 (0000ms, 5856ms total)
T2FB0 4433:541 JLINK_ReadReg(R12)  returns 0x00000000 (0000ms, 5856ms total)
T2FB0 4433:541 JLINK_ReadReg(R13 (SP))  returns 0x2000BB58 (0000ms, 5856ms total)
T2FB0 4433:541 JLINK_ReadReg(R14)  returns 0x080003A9 (0000ms, 5856ms total)
T2FB0 4433:542 JLINK_ReadReg(R15 (PC))  returns 0x080083DA (0000ms, 5857ms total)
T2FB0 4433:542 JLINK_ReadReg(XPSR)  returns 0x61000000 (0000ms, 5857ms total)
T2FB0 4433:542 JLINK_ReadReg(MSP)  returns 0x2000BB58 (0000ms, 5857ms total)
T2FB0 4433:542 JLINK_ReadReg(PSP)  returns 0x20001000 (0000ms, 5857ms total)
T2FB0 4433:542 JLINK_ReadReg(CFBP)  returns 0x00000000 (0000ms, 5857ms total)
T2FB0 4444:453 JLINK_ReadMemEx(0x080083DA, 0x0002 Bytes, ..., Flags = 0x02000000) -- CPU_ReadMem(64 bytes @ 0x080083C0) -- Updating C cache (64 bytes @ 0x080083C0) -- Read from C cache (2 bytes @ 0x080083DA) - Data: 10 B5  returns 0x02 (0000ms, 5857ms total)
T2FB0 4444:453 JLINK_SetBPEx(Addr = 0x08010446, Type = 0xFFFFFFF2)  returns 0x00000003 (0000ms, 5857ms total)
T2FB0 4444:453 JLINK_SetBPEx(Addr = 0x08006B34, Type = 0xFFFFFFF2)  returns 0x00000004 (0000ms, 5857ms total)
T2FB0 4444:453 JLINK_Go() -- CPU_WriteMem(4 bytes @ 0xE0002000) -- CPU_WriteMem(4 bytes @ 0xE0002000) -- CPU_ReadMem(4 bytes @ 0xE0001000) -- CPU_WriteMem(4 bytes @ 0xE0002008) -- CPU_WriteMem(4 bytes @ 0xE000200C) (0002ms, 5859ms total)
T2FB0 4444:556 JLINK_IsHalted()  returns TRUE (0002ms, 5861ms total)
T2FB0 4444:558 JLINK_Halt()  returns 0x00 (0000ms, 5859ms total)
T2FB0 4444:558 JLINK_IsHalted()  returns TRUE (0000ms, 5859ms total)
T2FB0 4444:558 JLINK_IsHalted()  returns TRUE (0000ms, 5859ms total)
T2FB0 4444:558 JLINK_IsHalted()  returns TRUE (0000ms, 5859ms total)
T2FB0 4444:558 JLINK_ReadReg(R15 (PC))  returns 0x08006B34 (0000ms, 5859ms total)
T2FB0 4444:558 JLINK_ReadReg(XPSR)  returns 0x01000000 (0000ms, 5859ms total)
T2FB0 4444:558 JLINK_ClrBPEx(BPHandle = 0x00000003)  returns 0x00 (0000ms, 5859ms total)
T2FB0 4444:558 JLINK_ClrBPEx(BPHandle = 0x00000004)  returns 0x00 (0000ms, 5859ms total)
T2FB0 4444:558 JLINK_ReadMemU32(0xE000ED30, 0x0001 Items, ...) -- CPU_ReadMem(4 bytes @ 0xE000ED30) - Data: 02 00 00 00  returns 0x01 (0000ms, 5859ms total)
T2FB0 4444:558 JLINK_ReadMemU32(0xE0001028, 0x0001 Items, ...) -- CPU_ReadMem(4 bytes @ 0xE0001028) - Data: 00 00 00 00  returns 0x01 (0000ms, 5859ms total)
T2FB0 4444:558 JLINK_ReadMemU32(0xE0001038, 0x0001 Items, ...) -- CPU_ReadMem(4 bytes @ 0xE0001038) - Data: 00 02 00 00  returns 0x01 (0001ms, 5860ms total)
T2FB0 4444:559 JLINK_ReadMemU32(0xE0001048, 0x0001 Items, ...) -- CPU_ReadMem(4 bytes @ 0xE0001048) - Data: 00 00 00 00  returns 0x01 (0000ms, 5860ms total)
T2FB0 4444:559 JLINK_ReadMemU32(0xE0001058, 0x0001 Items, ...) -- CPU_ReadMem(4 bytes @ 0xE0001058) - Data: 00 00 00 00  returns 0x01 (0000ms, 5860ms total)
T2FB0 4444:559 JLINK_ReadReg(R0)  returns 0x200000F8 (0000ms, 5860ms total)
T2FB0 4444:559 JLINK_ReadReg(R1)  returns 0x200000F8 (0000ms, 5860ms total)
T2FB0 4444:559 JLINK_ReadReg(R2)  returns 0x02020202 (0000ms, 5860ms total)
T2FB0 4444:559 JLINK_ReadReg(R3)  returns 0x03030303 (0000ms, 5860ms total)
T2FB0 4444:559 JLINK_ReadReg(R4)  returns 0x2000C5C0 (0000ms, 5860ms total)
T2FB0 4444:559 JLINK_ReadReg(R5)  returns 0x00000002 (0000ms, 5860ms total)
T2FB0 4444:559 JLINK_ReadReg(R6)  returns 0x06060606 (0000ms, 5860ms total)
T2FB0 4444:560 JLINK_ReadReg(R7)  returns 0x07070707 (0000ms, 5860ms total)
T2FB0 4444:560 JLINK_ReadReg(R8)  returns 0x08080808 (0000ms, 5860ms total)
T2FB0 4444:560 JLINK_ReadReg(R9)  returns 0x09090909 (0000ms, 5860ms total)
T2FB0 4444:560 JLINK_ReadReg(R10)  returns 0x10101010 (0000ms, 5860ms total)
T2FB0 4444:560 JLINK_ReadReg(R11)  returns 0x11111111 (0000ms, 5860ms total)
T2FB0 4444:560 JLINK_ReadReg(R12)  returns 0x12121212 (0000ms, 5860ms total)
T2FB0 4444:560 JLINK_ReadReg(R13 (SP))  returns 0x2000DFA0 (0000ms, 5860ms total)
T2FB0 4444:560 JLINK_ReadReg(R14)  returns 0x08008413 (0000ms, 5860ms total)
T2FB0 4444:560 JLINK_ReadReg(R15 (PC))  returns 0x08006B34 (0000ms, 5860ms total)
T2FB0 4444:560 JLINK_ReadReg(XPSR)  returns 0x01000000 (0000ms, 5860ms total)
T2FB0 4444:560 JLINK_ReadReg(MSP)  returns 0x2000BB48 (0000ms, 5860ms total)
T2FB0 4444:560 JLINK_ReadReg(PSP)  returns 0x2000DFA0 (0000ms, 5860ms total)
T2FB0 4444:560 JLINK_ReadReg(CFBP)  returns 0x02000000 (0000ms, 5860ms total)
T3D24 4444:560 JLINK_ReadMemEx(0x2000DFA4, 0x0004 Bytes, ..., Flags = 0x02000000) -- CPU_ReadMem(64 bytes @ 0x2000DF80) -- Updating C cache (64 bytes @ 0x2000DF80) -- Read from C cache (4 bytes @ 0x2000DFA4) - Data: 13 84 00 08  returns 0x04 (0001ms, 5861ms total)
T3D24 4444:561 JLINK_ReadMemEx(0x2000DFA0, 0x0004 Bytes, ..., Flags = 0x02000000) -- Read from C cache (4 bytes @ 0x2000DFA0) - Data: C0 C5 00 20  returns 0x04 (0000ms, 5861ms total)
T3D24 4444:564 JLINK_ReadMemEx(0x08006B34, 0x003C Bytes, ..., Flags = 0x02000000) -- CPU_ReadMem(128 bytes @ 0x08006B00) -- Updating C cache (128 bytes @ 0x08006B00) -- Read from C cache (60 bytes @ 0x08006B34) - Data: 11 B9 6F F0 0F 00 10 BD 02 48 91 E8 1C 00 1C C0 ...  returns 0x3C (0001ms, 5862ms total)
T2FB0 4446:242 JLINK_ReadMemEx(0x08006B34, 0x0002 Bytes, ..., Flags = 0x02000000) -- Read from C cache (2 bytes @ 0x08006B34) - Data: 11 B9  returns 0x02 (0000ms, 5862ms total)
T2FB0 4446:242 JLINK_Step() -- Read from C cache (2 bytes @ 0x08006B34) -- CPU_ReadMem(4 bytes @ 0xE000ED18) -- CPU_WriteMem(4 bytes @ 0xE000ED18) -- CPU_ReadMem(4 bytes @ 0xE000ED18) -- CPU_WriteMem(4 bytes @ 0xE000ED18) -- CPU_ReadMem(4 bytes @ 0xE0001004) -- Simulated  returns 0x00 (0001ms, 5863ms total)
T2FB0 4446:243 JLINK_ReadReg(R15 (PC))  returns 0x08006B3C (0000ms, 5863ms total)
T2FB0 4446:243 JLINK_ReadReg(XPSR)  returns 0x01000000 (0000ms, 5863ms total)
T2FB0 4446:244 JLINK_ReadReg(R0)  returns 0x200000F8 (0000ms, 5863ms total)
T2FB0 4446:244 JLINK_ReadReg(R1)  returns 0x200000F8 (0000ms, 5863ms total)
T2FB0 4446:244 JLINK_ReadReg(R2)  returns 0x02020202 (0000ms, 5863ms total)
T2FB0 4446:244 JLINK_ReadReg(R3)  returns 0x03030303 (0000ms, 5863ms total)
T2FB0 4446:244 JLINK_ReadReg(R4)  returns 0x2000C5C0 (0000ms, 5863ms total)
T2FB0 4446:244 JLINK_ReadReg(R5)  returns 0x00000002 (0000ms, 5863ms total)
T2FB0 4446:244 JLINK_ReadReg(R6)  returns 0x06060606 (0000ms, 5863ms total)
T2FB0 4446:244 JLINK_ReadReg(R7)  returns 0x07070707 (0000ms, 5863ms total)
T2FB0 4446:244 JLINK_ReadReg(R8)  returns 0x08080808 (0000ms, 5863ms total)
T2FB0 4446:244 JLINK_ReadReg(R9)  returns 0x09090909 (0000ms, 5863ms total)
T2FB0 4446:244 JLINK_ReadReg(R10)  returns 0x10101010 (0000ms, 5863ms total)
T2FB0 4446:244 JLINK_ReadReg(R11)  returns 0x11111111 (0000ms, 5863ms total)
T2FB0 4446:244 JLINK_ReadReg(R12)  returns 0x12121212 (0000ms, 5863ms total)
T2FB0 4446:244 JLINK_ReadReg(R13 (SP))  returns 0x2000DFA0 (0000ms, 5863ms total)
T2FB0 4446:244 JLINK_ReadReg(R14)  returns 0x08008413 (0000ms, 5863ms total)
T2FB0 4446:244 JLINK_ReadReg(R15 (PC))  returns 0x08006B3C (0000ms, 5863ms total)
T2FB0 4446:244 JLINK_ReadReg(XPSR)  returns 0x01000000 (0000ms, 5863ms total)
T2FB0 4446:244 JLINK_ReadReg(MSP)  returns 0x2000BB48 (0000ms, 5863ms total)
T2FB0 4446:244 JLINK_ReadReg(PSP)  returns 0x2000DFA0 (0000ms, 5863ms total)
T2FB0 4446:244 JLINK_ReadReg(CFBP)  returns 0x02000000 (0000ms, 5863ms total)
T3D24 4446:244 JLINK_ReadMemEx(0x2000DFA4, 0x0004 Bytes, ..., Flags = 0x02000000) -- Read from C cache (4 bytes @ 0x2000DFA4) - Data: 13 84 00 08  returns 0x04 (0000ms, 5863ms total)
T3D24 4446:244 JLINK_ReadMemEx(0x2000DFA0, 0x0004 Bytes, ..., Flags = 0x02000000) -- Read from C cache (4 bytes @ 0x2000DFA0) - Data: C0 C5 00 20  returns 0x04 (0001ms, 5864ms total)
T3D24 4446:247 JLINK_ReadMemEx(0x08006B3C, 0x003C Bytes, ..., Flags = 0x02000000) -- Read from C cache (60 bytes @ 0x08006B3C) - Data: 02 48 91 E8 1C 00 1C C0 00 20 F8 E7 2C 4D 00 20 ...  returns 0x3C (0000ms, 5864ms total)
T2FB0 4449:570 JLINK_ReadMemEx(0x08006B3C, 0x0002 Bytes, ..., Flags = 0x02000000) -- Read from C cache (2 bytes @ 0x08006B3C) - Data: 02 48  returns 0x02 (0000ms, 5864ms total)
T2FB0 4449:570 JLINK_Step() -- Read from C cache (2 bytes @ 0x08006B3C) -- Read from C cache (4 bytes @ 0x08006B48) -- Simulated  returns 0x00 (0000ms, 5864ms total)
T2FB0 4449:570 JLINK_ReadReg(R15 (PC))  returns 0x08006B3E (0000ms, 5864ms total)
T2FB0 4449:570 JLINK_ReadReg(XPSR)  returns 0x01000000 (0000ms, 5864ms total)
T2FB0 4449:570 JLINK_Step() -- Read from C cache (2 bytes @ 0x08006B3E) -- Read from C cache (2 bytes @ 0x08006B40) -- Not simulated -- CPU_WriteMem(4 bytes @ 0xE0002008) -- CPU_WriteMem(4 bytes @ 0xE000200C) -- CPU_WriteMem(4 bytes @ 0xE0001004)  returns 0x00 (0004ms, 5868ms total)
T2FB0 4449:574 JLINK_ReadReg(R15 (PC))  returns 0x08006B42 (0000ms, 5868ms total)
T2FB0 4449:574 JLINK_ReadReg(XPSR)  returns 0x01000000 (0000ms, 5868ms total)
T2FB0 4449:574 JLINK_ReadMemEx(0x08006B40, 0x003C Bytes, ..., Flags = 0x02000000) -- CPU_ReadMem(64 bytes @ 0x08006B40) -- Updating C cache (64 bytes @ 0x08006B40) -- Read from C cache (60 bytes @ 0x08006B40) - Data: 1C 00 1C C0 00 20 F8 E7 2C 4D 00 20 10 B5 04 46 ...  returns 0x3C (0000ms, 5868ms total)
T2FB0 4449:574 JLINK_ReadMemEx(0x08006B40, 0x0002 Bytes, ..., Flags = 0x02000000) -- Read from C cache (2 bytes @ 0x08006B40) - Data: 1C 00  returns 0x02 (0000ms, 5868ms total)
T2FB0 4449:574 JLINK_ReadMemEx(0x08006B42, 0x0002 Bytes, ..., Flags = 0x02000000) -- Read from C cache (2 bytes @ 0x08006B42) - Data: 1C C0  returns 0x02 (0000ms, 5868ms total)
T2FB0 4449:574 JLINK_Step() -- Read from C cache (2 bytes @ 0x08006B42) -- CPU_ReadMem(4 bytes @ 0xE0001004) -- CPU_WriteMem(12 bytes @ 0x20004D2C) -- Simulated  returns 0x00 (0001ms, 5869ms total)
T2FB0 4449:575 JLINK_ReadReg(R15 (PC))  returns 0x08006B44 (0000ms, 5869ms total)
T2FB0 4449:575 JLINK_ReadReg(XPSR)  returns 0x01000000 (0000ms, 5869ms total)
T2FB0 4449:575 JLINK_ReadReg(R0)  returns 0x20004D38 (0000ms, 5869ms total)
T2FB0 4449:575 JLINK_ReadReg(R1)  returns 0x200000F8 (0000ms, 5869ms total)
T2FB0 4449:575 JLINK_ReadReg(R2)  returns 0x08005711 (0000ms, 5869ms total)
T2FB0 4449:575 JLINK_ReadReg(R3)  returns 0x08005979 (0000ms, 5869ms total)
T2FB0 4449:575 JLINK_ReadReg(R4)  returns 0x08005875 (0000ms, 5869ms total)
T2FB0 4449:575 JLINK_ReadReg(R5)  returns 0x00000002 (0000ms, 5869ms total)
T2FB0 4449:575 JLINK_ReadReg(R6)  returns 0x06060606 (0000ms, 5869ms total)
T2FB0 4449:575 JLINK_ReadReg(R7)  returns 0x07070707 (0000ms, 5869ms total)
T2FB0 4449:575 JLINK_ReadReg(R8)  returns 0x08080808 (0000ms, 5869ms total)
T2FB0 4449:575 JLINK_ReadReg(R9)  returns 0x09090909 (0000ms, 5869ms total)
T2FB0 4449:575 JLINK_ReadReg(R10)  returns 0x10101010 (0000ms, 5869ms total)
T2FB0 4449:575 JLINK_ReadReg(R11)  returns 0x11111111 (0000ms, 5869ms total)
T2FB0 4449:575 JLINK_ReadReg(R12)  returns 0x12121212 (0000ms, 5869ms total)
T2FB0 4449:575 JLINK_ReadReg(R13 (SP))  returns 0x2000DFA0 (0000ms, 5869ms total)
T2FB0 4449:575 JLINK_ReadReg(R14)  returns 0x08008413 (0000ms, 5869ms total)
T2FB0 4449:575 JLINK_ReadReg(R15 (PC))  returns 0x08006B44 (0000ms, 5869ms total)
T2FB0 4449:575 JLINK_ReadReg(XPSR)  returns 0x01000000 (0000ms, 5869ms total)
T2FB0 4449:575 JLINK_ReadReg(MSP)  returns 0x2000BB48 (0000ms, 5869ms total)
T2FB0 4449:575 JLINK_ReadReg(PSP)  returns 0x2000DFA0 (0000ms, 5869ms total)
T2FB0 4449:575 JLINK_ReadReg(CFBP)  returns 0x02000000 (0000ms, 5869ms total)
T3D24 4449:576 JLINK_ReadMemEx(0x2000DFA4, 0x0004 Bytes, ..., Flags = 0x02000000) -- CPU_ReadMem(64 bytes @ 0x2000DF80) -- Updating C cache (64 bytes @ 0x2000DF80) -- Read from C cache (4 bytes @ 0x2000DFA4) - Data: 13 84 00 08  returns 0x04 (0000ms, 5869ms total)
T3D24 4449:576 JLINK_ReadMemEx(0x2000DFA0, 0x0004 Bytes, ..., Flags = 0x02000000) -- Read from C cache (4 bytes @ 0x2000DFA0) - Data: C0 C5 00 20  returns 0x04 (0000ms, 5869ms total)
T3D24 4449:578 JLINK_ReadMemEx(0x08006B44, 0x003C Bytes, ..., Flags = 0x02000000) -- Read from C cache (60 bytes @ 0x08006B44) - Data: 00 20 F8 E7 2C 4D 00 20 10 B5 04 46 00 BF 00 2C ...  returns 0x3C (0000ms, 5869ms total)
T2FB0 4452:986 JLINK_ReadMemEx(0x08006B44, 0x0002 Bytes, ..., Flags = 0x02000000) -- Read from C cache (2 bytes @ 0x08006B44) - Data: 00 20  returns 0x02 (0000ms, 5869ms total)
T2FB0 4452:986 JLINK_SetBPEx(Addr = 0x08010446, Type = 0xFFFFFFF2)  returns 0x00000005 (0000ms, 5869ms total)
T2FB0 4452:986 JLINK_SetBPEx(Addr = 0x08008244, Type = 0xFFFFFFF2)  returns 0x00000006 (0000ms, 5869ms total)
T2FB0 4452:986 JLINK_Go() -- CPU_WriteMem(4 bytes @ 0xE0002000) -- CPU_WriteMem(4 bytes @ 0xE0002000) -- CPU_ReadMem(4 bytes @ 0xE0001000) -- CPU_WriteMem(4 bytes @ 0xE0002008) -- CPU_WriteMem(4 bytes @ 0xE000200C) -- CPU_WriteMem(4 bytes @ 0xE0001004) (0002ms, 5871ms total)
T2FB0 4453:090 JLINK_IsHalted()  returns TRUE (0002ms, 5873ms total)
T2FB0 4453:092 JLINK_Halt()  returns 0x00 (0000ms, 5871ms total)
T2FB0 4453:092 JLINK_IsHalted()  returns TRUE (0000ms, 5871ms total)
T2FB0 4453:092 JLINK_IsHalted()  returns TRUE (0000ms, 5871ms total)
T2FB0 4453:092 JLINK_IsHalted()  returns TRUE (0000ms, 5871ms total)
T2FB0 4453:092 JLINK_ReadReg(R15 (PC))  returns 0x08008244 (0000ms, 5871ms total)
T2FB0 4453:092 JLINK_ReadReg(XPSR)  returns 0x21000000 (0000ms, 5871ms total)
T2FB0 4453:092 JLINK_ClrBPEx(BPHandle = 0x00000005)  returns 0x00 (0000ms, 5871ms total)
T2FB0 4453:092 JLINK_ClrBPEx(BPHandle = 0x00000006)  returns 0x00 (0000ms, 5871ms total)
T2FB0 4453:092 JLINK_ReadMemU32(0xE000ED30, 0x0001 Items, ...) -- CPU_ReadMem(4 bytes @ 0xE000ED30) - Data: 02 00 00 00  returns 0x01 (0000ms, 5871ms total)
T2FB0 4453:092 JLINK_ReadMemU32(0xE0001028, 0x0001 Items, ...) -- CPU_ReadMem(4 bytes @ 0xE0001028) - Data: 00 00 00 00  returns 0x01 (0000ms, 5871ms total)
T2FB0 4453:092 JLINK_ReadMemU32(0xE0001038, 0x0001 Items, ...) -- CPU_ReadMem(4 bytes @ 0xE0001038) - Data: 00 02 00 00  returns 0x01 (0001ms, 5872ms total)
T2FB0 4453:093 JLINK_ReadMemU32(0xE0001048, 0x0001 Items, ...) -- CPU_ReadMem(4 bytes @ 0xE0001048) - Data: 00 00 00 00  returns 0x01 (0000ms, 5872ms total)
T2FB0 4453:093 JLINK_ReadMemU32(0xE0001058, 0x0001 Items, ...) -- CPU_ReadMem(4 bytes @ 0xE0001058) - Data: 00 00 00 00  returns 0x01 (0000ms, 5872ms total)
T2FB0 4453:093 JLINK_ReadReg(R0)  returns 0x2000047C (0000ms, 5872ms total)
T2FB0 4453:093 JLINK_ReadReg(R1)  returns 0x0000006E (0000ms, 5872ms total)
T2FB0 4453:093 JLINK_ReadReg(R2)  returns 0x20000480 (0000ms, 5872ms total)
T2FB0 4453:093 JLINK_ReadReg(R3)  returns 0x020FA8C0 (0000ms, 5872ms total)
T2FB0 4453:093 JLINK_ReadReg(R4)  returns 0x2000047C (0000ms, 5872ms total)
T2FB0 4453:093 JLINK_ReadReg(R5)  returns 0x08006B4D (0000ms, 5872ms total)
T2FB0 4453:093 JLINK_ReadReg(R6)  returns 0x200000D8 (0000ms, 5872ms total)
T2FB0 4453:093 JLINK_ReadReg(R7)  returns 0x200000DC (0000ms, 5872ms total)
T2FB0 4453:093 JLINK_ReadReg(R8)  returns 0x200000E0 (0000ms, 5872ms total)
T2FB0 4453:093 JLINK_ReadReg(R9)  returns 0x00000000 (0000ms, 5872ms total)
T2FB0 4453:093 JLINK_ReadReg(R10)  returns 0x080104DD (0000ms, 5872ms total)
T2FB0 4453:093 JLINK_ReadReg(R11)  returns 0x11111111 (0000ms, 5872ms total)
T2FB0 4453:093 JLINK_ReadReg(R12)  returns 0x00000000 (0000ms, 5872ms total)
T2FB0 4453:093 JLINK_ReadReg(R13 (SP))  returns 0x2000DF68 (0001ms, 5873ms total)
T2FB0 4453:094 JLINK_ReadReg(R14)  returns 0x08006B83 (0000ms, 5873ms total)
T2FB0 4453:094 JLINK_ReadReg(R15 (PC))  returns 0x08008244 (0000ms, 5873ms total)
T2FB0 4453:094 JLINK_ReadReg(XPSR)  returns 0x21000000 (0000ms, 5873ms total)
T2FB0 4453:094 JLINK_ReadReg(MSP)  returns 0x2000BB48 (0000ms, 5873ms total)
T2FB0 4453:094 JLINK_ReadReg(PSP)  returns 0x2000DF68 (0000ms, 5873ms total)
T2FB0 4453:094 JLINK_ReadReg(CFBP)  returns 0x02000000 (0000ms, 5873ms total)
T3D24 4453:094 JLINK_ReadMemEx(0x2000DF6C, 0x0004 Bytes, ..., Flags = 0x02000000) -- CPU_ReadMem(64 bytes @ 0x2000DF40) -- Updating C cache (64 bytes @ 0x2000DF40) -- Read from C cache (4 bytes @ 0x2000DF6C) - Data: 83 6B 00 08  returns 0x04 (0001ms, 5874ms total)
T3D24 4453:095 JLINK_ReadMemEx(0x2000DF68, 0x0004 Bytes, ..., Flags = 0x02000000) -- Read from C cache (4 bytes @ 0x2000DF68) - Data: 7C 04 00 20  returns 0x04 (0000ms, 5874ms total)
T3D24 4453:095 JLINK_ReadMemEx(0x2000DF74, 0x0004 Bytes, ..., Flags = 0x02000000) -- Read from C cache (4 bytes @ 0x2000DF74) - Data: 3B 8D 00 08  returns 0x04 (0000ms, 5874ms total)
T3D24 4453:107 JLINK_ReadMemEx(0x2000DF70, 0x0004 Bytes, ..., Flags = 0x02000000) -- Read from C cache (4 bytes @ 0x2000DF70) - Data: 7C 04 00 20  returns 0x04 (0000ms, 5874ms total)
T3D24 4453:107 JLINK_ReadMemEx(0x2000DF94, 0x0004 Bytes, ..., Flags = 0x02000000) -- CPU_ReadMem(64 bytes @ 0x2000DF80) -- Updating C cache (64 bytes @ 0x2000DF80) -- Read from C cache (4 bytes @ 0x2000DF94) - Data: F3 31 00 08  returns 0x04 (0001ms, 5875ms total)
T3D24 4453:108 JLINK_ReadMemEx(0x2000DF78, 0x0004 Bytes, ..., Flags = 0x02000000) -- Read from C cache (4 bytes @ 0x2000DF78) - Data: C0 C5 00 20  returns 0x04 (0000ms, 5875ms total)
T3D24 4453:108 JLINK_ReadMemEx(0x2000DF7C, 0x0004 Bytes, ..., Flags = 0x02000000) -- Read from C cache (4 bytes @ 0x2000DF7C) - Data: 02 00 00 00  returns 0x04 (0000ms, 5875ms total)
T3D24 4453:108 JLINK_ReadMemEx(0x2000DF80, 0x0004 Bytes, ..., Flags = 0x02000000) -- Read from C cache (4 bytes @ 0x2000DF80) - Data: 06 06 06 06  returns 0x04 (0000ms, 5875ms total)
T3D24 4453:108 JLINK_ReadMemEx(0x2000DF84, 0x0004 Bytes, ..., Flags = 0x02000000) -- Read from C cache (4 bytes @ 0x2000DF84) - Data: 07 07 07 07  returns 0x04 (0000ms, 5875ms total)
T3D24 4453:108 JLINK_ReadMemEx(0x2000DF88, 0x0004 Bytes, ..., Flags = 0x02000000) -- Read from C cache (4 bytes @ 0x2000DF88) - Data: 08 08 08 08  returns 0x04 (0000ms, 5875ms total)
T3D24 4453:108 JLINK_ReadMemEx(0x2000DF8C, 0x0004 Bytes, ..., Flags = 0x02000000) -- Read from C cache (4 bytes @ 0x2000DF8C) - Data: 09 09 09 09  returns 0x04 (0000ms, 5875ms total)
T3D24 4453:108 JLINK_ReadMemEx(0x2000DF90, 0x0004 Bytes, ..., Flags = 0x02000000) -- Read from C cache (4 bytes @ 0x2000DF90) - Data: 10 10 10 10  returns 0x04 (0000ms, 5875ms total)
T3D24 4453:108 JLINK_ReadMemEx(0x2000DFA4, 0x0004 Bytes, ..., Flags = 0x02000000) -- Read from C cache (4 bytes @ 0x2000DFA4) - Data: 17 84 00 08  returns 0x04 (0000ms, 5875ms total)
T3D24 4453:111 JLINK_ReadMemEx(0x08008244, 0x003C Bytes, ..., Flags = 0x02000000) -- CPU_ReadMem(64 bytes @ 0x08008240) -- Updating C cache (64 bytes @ 0x08008240) -- Read from C cache (60 bytes @ 0x08008244) - Data: 04 48 00 68 28 B1 03 48 01 68 20 46 88 47 02 48 ...  returns 0x3C (0000ms, 5875ms total)
T2FB0 4454:605 JLINK_ReadMemEx(0x08008244, 0x0002 Bytes, ..., Flags = 0x02000000) -- Read from C cache (2 bytes @ 0x08008244) - Data: 04 48  returns 0x02 (0000ms, 5875ms total)
T2FB0 4454:605 JLINK_Step() -- Read from C cache (2 bytes @ 0x08008244) -- CPU_ReadMem(4 bytes @ 0xE0001004) -- Read from C cache (4 bytes @ 0x08008258) -- Simulated  returns 0x00 (0001ms, 5876ms total)
T2FB0 4454:606 JLINK_ReadReg(R15 (PC))  returns 0x08008246 (0000ms, 5876ms total)
T2FB0 4454:606 JLINK_ReadReg(XPSR)  returns 0x21000000 (0000ms, 5876ms total)
T2FB0 4454:606 JLINK_Step() -- Read from C cache (2 bytes @ 0x08008246) -- CPU_ReadMem(64 bytes @ 0x20004D00) -- Updating C cache (64 bytes @ 0x20004D00) -- Read from C cache (4 bytes @ 0x20004D2C) -- Simulated  returns 0x00 (0000ms, 5876ms total)
T2FB0 4454:606 JLINK_ReadReg(R15 (PC))  returns 0x08008248 (0000ms, 5876ms total)
T2FB0 4454:606 JLINK_ReadReg(XPSR)  returns 0x21000000 (0000ms, 5876ms total)
T2FB0 4454:606 JLINK_Step() -- Read from C cache (2 bytes @ 0x08008248) -- Simulated  returns 0x00 (0000ms, 5876ms total)
T2FB0 4454:606 JLINK_ReadReg(R15 (PC))  returns 0x0800824A (0000ms, 5876ms total)
T2FB0 4454:606 JLINK_ReadReg(XPSR)  returns 0x21000000 (0000ms, 5876ms total)
T2FB0 4454:606 JLINK_ReadReg(R0)  returns 0x08005711 (0000ms, 5876ms total)
T2FB0 4454:606 JLINK_ReadReg(R1)  returns 0x0000006E (0000ms, 5876ms total)
T2FB0 4454:606 JLINK_ReadReg(R2)  returns 0x20000480 (0001ms, 5877ms total)
T2FB0 4454:607 JLINK_ReadReg(R3)  returns 0x020FA8C0 (0000ms, 5877ms total)
T2FB0 4454:607 JLINK_ReadReg(R4)  returns 0x2000047C (0000ms, 5877ms total)
T2FB0 4454:607 JLINK_ReadReg(R5)  returns 0x08006B4D (0000ms, 5877ms total)
T2FB0 4454:607 JLINK_ReadReg(R6)  returns 0x200000D8 (0000ms, 5877ms total)
T2FB0 4454:607 JLINK_ReadReg(R7)  returns 0x200000DC (0000ms, 5877ms total)
T2FB0 4454:607 JLINK_ReadReg(R8)  returns 0x200000E0 (0000ms, 5877ms total)
T2FB0 4454:607 JLINK_ReadReg(R9)  returns 0x00000000 (0000ms, 5877ms total)
T2FB0 4454:607 JLINK_ReadReg(R10)  returns 0x080104DD (0000ms, 5877ms total)
T2FB0 4454:607 JLINK_ReadReg(R11)  returns 0x11111111 (0000ms, 5877ms total)
T2FB0 4454:607 JLINK_ReadReg(R12)  returns 0x00000000 (0000ms, 5877ms total)
T2FB0 4454:607 JLINK_ReadReg(R13 (SP))  returns 0x2000DF68 (0000ms, 5877ms total)
T2FB0 4454:607 JLINK_ReadReg(R14)  returns 0x08006B83 (0000ms, 5877ms total)
T2FB0 4454:607 JLINK_ReadReg(R15 (PC))  returns 0x0800824A (0000ms, 5877ms total)
T2FB0 4454:607 JLINK_ReadReg(XPSR)  returns 0x21000000 (0000ms, 5877ms total)
T2FB0 4454:607 JLINK_ReadReg(MSP)  returns 0x2000BB48 (0000ms, 5877ms total)
T2FB0 4454:607 JLINK_ReadReg(PSP)  returns 0x2000DF68 (0000ms, 5877ms total)
T2FB0 4454:607 JLINK_ReadReg(CFBP)  returns 0x02000000 (0000ms, 5877ms total)
T3D24 4454:607 JLINK_ReadMemEx(0x2000DF6C, 0x0004 Bytes, ..., Flags = 0x02000000) -- Read from C cache (4 bytes @ 0x2000DF6C) - Data: 83 6B 00 08  returns 0x04 (0000ms, 5877ms total)
T3D24 4454:607 JLINK_ReadMemEx(0x2000DF68, 0x0004 Bytes, ..., Flags = 0x02000000) -- Read from C cache (4 bytes @ 0x2000DF68) - Data: 7C 04 00 20  returns 0x04 (0000ms, 5877ms total)
T3D24 4454:607 JLINK_ReadMemEx(0x2000DF74, 0x0004 Bytes, ..., Flags = 0x02000000) -- Read from C cache (4 bytes @ 0x2000DF74) - Data: 3B 8D 00 08  returns 0x04 (0000ms, 5877ms total)
T3D24 4454:607 JLINK_ReadMemEx(0x2000DF70, 0x0004 Bytes, ..., Flags = 0x02000000) -- Read from C cache (4 bytes @ 0x2000DF70) - Data: 7C 04 00 20  returns 0x04 (0000ms, 5877ms total)
T3D24 4454:607 JLINK_ReadMemEx(0x2000DF94, 0x0004 Bytes, ..., Flags = 0x02000000) -- Read from C cache (4 bytes @ 0x2000DF94) - Data: F3 31 00 08  returns 0x04 (0000ms, 5877ms total)
T3D24 4454:607 JLINK_ReadMemEx(0x2000DF78, 0x0004 Bytes, ..., Flags = 0x02000000) -- Read from C cache (4 bytes @ 0x2000DF78) - Data: C0 C5 00 20  returns 0x04 (0000ms, 5877ms total)
T3D24 4454:607 JLINK_ReadMemEx(0x2000DF7C, 0x0004 Bytes, ..., Flags = 0x02000000) -- Read from C cache (4 bytes @ 0x2000DF7C) - Data: 02 00 00 00  returns 0x04 (0000ms, 5877ms total)
T3D24 4454:607 JLINK_ReadMemEx(0x2000DF80, 0x0004 Bytes, ..., Flags = 0x02000000) -- Read from C cache (4 bytes @ 0x2000DF80) - Data: 06 06 06 06  returns 0x04 (0000ms, 5877ms total)
T3D24 4454:607 JLINK_ReadMemEx(0x2000DF84, 0x0004 Bytes, ..., Flags = 0x02000000) -- Read from C cache (4 bytes @ 0x2000DF84) - Data: 07 07 07 07  returns 0x04 (0000ms, 5877ms total)
T3D24 4454:607 JLINK_ReadMemEx(0x2000DF88, 0x0004 Bytes, ..., Flags = 0x02000000) -- Read from C cache (4 bytes @ 0x2000DF88) - Data: 08 08 08 08  returns 0x04 (0000ms, 5877ms total)
T3D24 4454:607 JLINK_ReadMemEx(0x2000DF8C, 0x0004 Bytes, ..., Flags = 0x02000000) -- Read from C cache (4 bytes @ 0x2000DF8C) - Data: 09 09 09 09  returns 0x04 (0000ms, 5877ms total)
T3D24 4454:607 JLINK_ReadMemEx(0x2000DF90, 0x0004 Bytes, ..., Flags = 0x02000000) -- Read from C cache (4 bytes @ 0x2000DF90) - Data: 10 10 10 10  returns 0x04 (0000ms, 5877ms total)
T3D24 4454:607 JLINK_ReadMemEx(0x2000DFA4, 0x0004 Bytes, ..., Flags = 0x02000000) -- Read from C cache (4 bytes @ 0x2000DFA4) - Data: 17 84 00 08  returns 0x04 (0000ms, 5877ms total)
T3D24 4454:610 JLINK_ReadMemEx(0x0800824A, 0x0002 Bytes, ..., Flags = 0x02000000) -- Read from C cache (2 bytes @ 0x0800824A) - Data: 03 48  returns 0x02 (0000ms, 5877ms total)
T3D24 4454:610 JLINK_ReadMemEx(0x0800824C, 0x003C Bytes, ..., Flags = 0x02000000) -- CPU_ReadMem(64 bytes @ 0x08008280) -- Updating C cache (64 bytes @ 0x08008280) -- Read from C cache (60 bytes @ 0x0800824C) - Data: 01 68 20 46 88 47 02 48 04 60 10 BD 2C 4D 00 20 ...  returns 0x3C (0000ms, 5877ms total)
T2FB0 4456:948 JLINK_ReadMemEx(0x0800824A, 0x0002 Bytes, ..., Flags = 0x02000000) -- Read from C cache (2 bytes @ 0x0800824A) - Data: 03 48  returns 0x02 (0000ms, 5877ms total)
T2FB0 4456:948 JLINK_Step() -- Read from C cache (2 bytes @ 0x0800824A) -- Read from C cache (4 bytes @ 0x08008258) -- Simulated  returns 0x00 (0000ms, 5877ms total)
T2FB0 4456:948 JLINK_ReadReg(R15 (PC))  returns 0x0800824C (0000ms, 5877ms total)
T2FB0 4456:948 JLINK_ReadReg(XPSR)  returns 0x21000000 (0000ms, 5877ms total)
T2FB0 4456:948 JLINK_Step() -- Read from C cache (2 bytes @ 0x0800824C) -- Read from C cache (4 bytes @ 0x20004D2C) -- Simulated  returns 0x00 (0000ms, 5877ms total)
T2FB0 4456:948 JLINK_ReadReg(R15 (PC))  returns 0x0800824E (0000ms, 5877ms total)
T2FB0 4456:948 JLINK_ReadReg(XPSR)  returns 0x21000000 (0000ms, 5877ms total)
T2FB0 4456:948 JLINK_Step() -- Read from C cache (2 bytes @ 0x0800824E) -- Simulated  returns 0x00 (0000ms, 5877ms total)
T2FB0 4456:948 JLINK_ReadReg(R15 (PC))  returns 0x08008250 (0000ms, 5877ms total)
T2FB0 4456:948 JLINK_ReadReg(XPSR)  returns 0x21000000 (0000ms, 5877ms total)
T2FB0 4456:948 JLINK_ReadReg(R0)  returns 0x2000047C (0000ms, 5877ms total)
T2FB0 4456:948 JLINK_ReadReg(R1)  returns 0x08005711 (0000ms, 5877ms total)
T2FB0 4456:948 JLINK_ReadReg(R2)  returns 0x20000480 (0000ms, 5877ms total)
T2FB0 4456:948 JLINK_ReadReg(R3)  returns 0x020FA8C0 (0000ms, 5877ms total)
T2FB0 4456:948 JLINK_ReadReg(R4)  returns 0x2000047C (0000ms, 5877ms total)
T2FB0 4456:948 JLINK_ReadReg(R5)  returns 0x08006B4D (0000ms, 5877ms total)
T2FB0 4456:948 JLINK_ReadReg(R6)  returns 0x200000D8 (0000ms, 5877ms total)
T2FB0 4456:949 JLINK_ReadReg(R7)  returns 0x200000DC (0000ms, 5878ms total)
T2FB0 4456:949 JLINK_ReadReg(R8)  returns 0x200000E0 (0000ms, 5878ms total)
T2FB0 4456:949 JLINK_ReadReg(R9)  returns 0x00000000 (0000ms, 5878ms total)
T2FB0 4456:949 JLINK_ReadReg(R10)  returns 0x080104DD (0000ms, 5878ms total)
T2FB0 4456:949 JLINK_ReadReg(R11)  returns 0x11111111 (0000ms, 5878ms total)
T2FB0 4456:949 JLINK_ReadReg(R12)  returns 0x00000000 (0000ms, 5878ms total)
T2FB0 4456:949 JLINK_ReadReg(R13 (SP))  returns 0x2000DF68 (0000ms, 5878ms total)
T2FB0 4456:949 JLINK_ReadReg(R14)  returns 0x08006B83 (0000ms, 5878ms total)
T2FB0 4456:949 JLINK_ReadReg(R15 (PC))  returns 0x08008250 (0000ms, 5878ms total)
T2FB0 4456:949 JLINK_ReadReg(XPSR)  returns 0x21000000 (0000ms, 5878ms total)
T2FB0 4456:949 JLINK_ReadReg(MSP)  returns 0x2000BB48 (0000ms, 5878ms total)
T2FB0 4456:949 JLINK_ReadReg(PSP)  returns 0x2000DF68 (0000ms, 5878ms total)
T2FB0 4456:949 JLINK_ReadReg(CFBP)  returns 0x02000000 (0000ms, 5878ms total)
T2FB0 4456:950 JLINK_Step() -- Read from C cache (2 bytes @ 0x08008250) -- Simulated  returns 0x00 (0000ms, 5878ms total)
T2FB0 4456:950 JLINK_ReadReg(R15 (PC))  returns 0x08005710 (0000ms, 5878ms total)
T2FB0 4456:950 JLINK_ReadReg(XPSR)  returns 0x21000000 (0000ms, 5878ms total)
T2FB0 4456:950 JLINK_ReadReg(R0)  returns 0x2000047C (0000ms, 5878ms total)
T2FB0 4456:950 JLINK_ReadReg(R1)  returns 0x08005711 (0000ms, 5878ms total)
T2FB0 4456:950 JLINK_ReadReg(R2)  returns 0x20000480 (0000ms, 5878ms total)
T2FB0 4456:950 JLINK_ReadReg(R3)  returns 0x020FA8C0 (0000ms, 5878ms total)
T2FB0 4456:950 JLINK_ReadReg(R4)  returns 0x2000047C (0000ms, 5878ms total)
T2FB0 4456:950 JLINK_ReadReg(R5)  returns 0x08006B4D (0000ms, 5878ms total)
T2FB0 4456:950 JLINK_ReadReg(R6)  returns 0x200000D8 (0000ms, 5878ms total)
T2FB0 4456:950 JLINK_ReadReg(R7)  returns 0x200000DC (0000ms, 5878ms total)
T2FB0 4456:950 JLINK_ReadReg(R8)  returns 0x200000E0 (0000ms, 5878ms total)
T2FB0 4456:950 JLINK_ReadReg(R9)  returns 0x00000000 (0000ms, 5878ms total)
T2FB0 4456:950 JLINK_ReadReg(R10)  returns 0x080104DD (0000ms, 5878ms total)
T2FB0 4456:950 JLINK_ReadReg(R11)  returns 0x11111111 (0000ms, 5878ms total)
T2FB0 4456:950 JLINK_ReadReg(R12)  returns 0x00000000 (0000ms, 5878ms total)
T2FB0 4456:950 JLINK_ReadReg(R13 (SP))  returns 0x2000DF68 (0000ms, 5878ms total)
T2FB0 4456:950 JLINK_ReadReg(R14)  returns 0x08008253 (0000ms, 5878ms total)
T2FB0 4456:950 JLINK_ReadReg(R15 (PC))  returns 0x08005710 (0000ms, 5878ms total)
T2FB0 4456:950 JLINK_ReadReg(XPSR)  returns 0x21000000 (0000ms, 5878ms total)
T2FB0 4456:950 JLINK_ReadReg(MSP)  returns 0x2000BB48 (0000ms, 5878ms total)
T2FB0 4456:950 JLINK_ReadReg(PSP)  returns 0x2000DF68 (0000ms, 5878ms total)
T2FB0 4456:950 JLINK_ReadReg(CFBP)  returns 0x02000000 (0000ms, 5878ms total)
T3D24 4456:951 JLINK_ReadMemEx(0x2000DF6C, 0x0004 Bytes, ..., Flags = 0x02000000) -- Read from C cache (4 bytes @ 0x2000DF6C) - Data: 83 6B 00 08  returns 0x04 (0000ms, 5878ms total)
T3D24 4456:951 JLINK_ReadMemEx(0x2000DF68, 0x0004 Bytes, ..., Flags = 0x02000000) -- Read from C cache (4 bytes @ 0x2000DF68) - Data: 7C 04 00 20  returns 0x04 (0000ms, 5878ms total)
T3D24 4456:951 JLINK_ReadMemEx(0x2000DF74, 0x0004 Bytes, ..., Flags = 0x02000000) -- Read from C cache (4 bytes @ 0x2000DF74) - Data: 3B 8D 00 08  returns 0x04 (0000ms, 5878ms total)
T3D24 4456:951 JLINK_ReadMemEx(0x2000DF70, 0x0004 Bytes, ..., Flags = 0x02000000) -- Read from C cache (4 bytes @ 0x2000DF70) - Data: 7C 04 00 20  returns 0x04 (0000ms, 5878ms total)
T3D24 4456:951 JLINK_ReadMemEx(0x2000DF94, 0x0004 Bytes, ..., Flags = 0x02000000) -- Read from C cache (4 bytes @ 0x2000DF94) - Data: F3 31 00 08  returns 0x04 (0000ms, 5878ms total)
T3D24 4456:951 JLINK_ReadMemEx(0x2000DF78, 0x0004 Bytes, ..., Flags = 0x02000000) -- Read from C cache (4 bytes @ 0x2000DF78) - Data: C0 C5 00 20  returns 0x04 (0000ms, 5878ms total)
T3D24 4456:951 JLINK_ReadMemEx(0x2000DF7C, 0x0004 Bytes, ..., Flags = 0x02000000) -- Read from C cache (4 bytes @ 0x2000DF7C) - Data: 02 00 00 00  returns 0x04 (0000ms, 5878ms total)
T3D24 4456:951 JLINK_ReadMemEx(0x2000DF80, 0x0004 Bytes, ..., Flags = 0x02000000) -- Read from C cache (4 bytes @ 0x2000DF80) - Data: 06 06 06 06  returns 0x04 (0001ms, 5879ms total)
T3D24 4456:952 JLINK_ReadMemEx(0x2000DF84, 0x0004 Bytes, ..., Flags = 0x02000000) -- Read from C cache (4 bytes @ 0x2000DF84) - Data: 07 07 07 07  returns 0x04 (0000ms, 5879ms total)
T3D24 4456:952 JLINK_ReadMemEx(0x2000DF88, 0x0004 Bytes, ..., Flags = 0x02000000) -- Read from C cache (4 bytes @ 0x2000DF88) - Data: 08 08 08 08  returns 0x04 (0000ms, 5879ms total)
T3D24 4456:952 JLINK_ReadMemEx(0x2000DF8C, 0x0004 Bytes, ..., Flags = 0x02000000) -- Read from C cache (4 bytes @ 0x2000DF8C) - Data: 09 09 09 09  returns 0x04 (0000ms, 5879ms total)
T3D24 4456:952 JLINK_ReadMemEx(0x2000DF90, 0x0004 Bytes, ..., Flags = 0x02000000) -- Read from C cache (4 bytes @ 0x2000DF90) - Data: 10 10 10 10  returns 0x04 (0000ms, 5879ms total)
T3D24 4456:952 JLINK_ReadMemEx(0x2000DFA4, 0x0004 Bytes, ..., Flags = 0x02000000) -- Read from C cache (4 bytes @ 0x2000DFA4) - Data: 17 84 00 08  returns 0x04 (0000ms, 5879ms total)
T3D24 4456:952 JLINK_ReadMemEx(0x2000DF60, 0x0004 Bytes, ..., Flags = 0x02000000) -- Read from C cache (4 bytes @ 0x2000DF60) - Data: 7C 04 00 20  returns 0x04 (0000ms, 5879ms total)
T3D24 4456:952 JLINK_ReadMemEx(0x2000DF58, 0x0006 Bytes, ..., Flags = 0x02000000) -- Read from C cache (6 bytes @ 0x2000DF58) - Data: DC 00 00 20 3F 8E  returns 0x06 (0000ms, 5879ms total)
T2FB0 4457:747 JLINK_ReadMemEx(0x08005710, 0x003C Bytes, ..., Flags = 0x02000000) -- CPU_ReadMem(128 bytes @ 0x08005700) -- Updating C cache (128 bytes @ 0x08005700) -- Read from C cache (60 bytes @ 0x08005710) - Data: 01 B5 88 B0 4B 48 4C 49 08 60 01 20 48 60 01 21 ...  returns 0x3C (0001ms, 5880ms total)
T2FB0 4457:748 JLINK_ReadMemEx(0x08005710, 0x0002 Bytes, ..., Flags = 0x02000000) -- Read from C cache (2 bytes @ 0x08005710) - Data: 01 B5  returns 0x02 (0000ms, 5880ms total)
T2FB0 4457:748 JLINK_Step() -- Read from C cache (2 bytes @ 0x08005710) -- CPU_WriteMem(8 bytes @ 0x2000DF60) -- Simulated  returns 0x00 (0001ms, 5881ms total)
T2FB0 4457:749 JLINK_ReadReg(R15 (PC))  returns 0x08005712 (0000ms, 5881ms total)
T2FB0 4457:749 JLINK_ReadReg(XPSR)  returns 0x21000000 (0000ms, 5881ms total)
T2FB0 4457:749 JLINK_ReadMemEx(0x08005712, 0x0002 Bytes, ..., Flags = 0x02000000) -- Read from C cache (2 bytes @ 0x08005712) - Data: 88 B0  returns 0x02 (0000ms, 5881ms total)
T2FB0 4457:749 JLINK_ReadMemEx(0x08005714, 0x003C Bytes, ..., Flags = 0x02000000) -- Read from C cache (60 bytes @ 0x08005714) - Data: 4B 48 4C 49 08 60 01 20 48 60 01 21 49 48 01 82 ...  returns 0x3C (0000ms, 5881ms total)
T2FB0 4457:749 JLINK_ReadMemEx(0x08005714, 0x0002 Bytes, ..., Flags = 0x02000000) -- Read from C cache (2 bytes @ 0x08005714) - Data: 4B 48  returns 0x02 (0000ms, 5881ms total)
T2FB0 4457:749 JLINK_Step() -- Read from C cache (2 bytes @ 0x08005712) -- Simulated  returns 0x00 (0000ms, 5881ms total)
T2FB0 4457:749 JLINK_ReadReg(R15 (PC))  returns 0x08005714 (0000ms, 5881ms total)
T2FB0 4457:749 JLINK_ReadReg(XPSR)  returns 0x21000000 (0000ms, 5881ms total)
T2FB0 4457:749 JLINK_ReadReg(R0)  returns 0x2000047C (0000ms, 5881ms total)
T2FB0 4457:749 JLINK_ReadReg(R1)  returns 0x08005711 (0000ms, 5881ms total)
T2FB0 4457:749 JLINK_ReadReg(R2)  returns 0x20000480 (0000ms, 5881ms total)
T2FB0 4457:749 JLINK_ReadReg(R3)  returns 0x020FA8C0 (0000ms, 5881ms total)
T2FB0 4457:749 JLINK_ReadReg(R4)  returns 0x2000047C (0000ms, 5881ms total)
T2FB0 4457:749 JLINK_ReadReg(R5)  returns 0x08006B4D (0000ms, 5881ms total)
T2FB0 4457:749 JLINK_ReadReg(R6)  returns 0x200000D8 (0000ms, 5881ms total)
T2FB0 4457:749 JLINK_ReadReg(R7)  returns 0x200000DC (0001ms, 5882ms total)
T2FB0 4457:750 JLINK_ReadReg(R8)  returns 0x200000E0 (0000ms, 5882ms total)
T2FB0 4457:750 JLINK_ReadReg(R9)  returns 0x00000000 (0000ms, 5882ms total)
T2FB0 4457:750 JLINK_ReadReg(R10)  returns 0x080104DD (0000ms, 5882ms total)
